T7B28 000:000.587   SEGGER J-Link V8.44a Log File
T7B28 000:000.819   DLL Compiled: Jun 18 2025 16:28:32
T7B28 000:000.826   Logging started @ 2025-08-07 23:04
T7B28 000:000.831   Process: C:\Users\daled\.eclipse\com.renesas.platform_1872530737\DebugComp\RA\e2-server-gdb.exe
T7B28 000:000.840 - 0.836ms 
T7B28 000:000.853 JLINK_GetDLLVersion()
T7B28 000:000.860 - 0.006ms returns 84401
T7B28 000:002.930 JLINK_OpenEx(...)
T7B28 000:009.234   Firmware: J-Link OB-RA4M2 compiled Jul  8 2025 10:15:56
T7B28 000:010.022   Firmware: J-Link OB-RA4M2 compiled Jul  8 2025 10:15:56
T7B28 000:024.098   Hardware: V1.00
T7B28 000:024.138   S/N: 1088219612
T7B28 000:024.150   OEM: SEGGER
T7B28 000:024.169   Feature(s): None
T7B28 000:025.097   Bootloader: 2021 May 14
T7B28 000:025.852   USB speed mode: Full speed (12 MBit/s)
T7B28 000:026.234   TELNET listener socket opened on port 19021
T7B28 000:026.363   WEBSRV WEBSRV_Init(): Starting webserver thread(s)
T7B28 000:026.515   WEBSRV Webserver running on local port 19080
T7B28 000:026.607   Looking for J-Link GUI Server exe at: C:\Users\daled\.eclipse\com.renesas.platform_1872530737\DebugComp\RA\ARM\Segger_v8.44.1\JLinkGUIServer.exe
T7B28 000:026.694   Looking for J-Link GUI Server exe at: C:\Program Files\SEGGER\JLink_V856\JLinkGUIServer.exe
T7B28 000:026.731   Forking J-Link GUI Server: C:\Program Files\SEGGER\JLink_V856\JLinkGUIServer.exe
T7B28 000:047.866   J-Link GUI Server info: "J-Link GUI server V8.56 "
T7B28 000:053.801 - 50.867ms returns "O.K."
T7B28 000:053.877 JLINK_TIF_Select(JLINKARM_TIF_SWD)
T7B28 000:054.695 - 0.818ms returns 0x00
T7B28 000:054.718 JLINK_ClrRESET()
T7B28 000:056.483 - 1.765ms 
T7B28 000:107.579 JLINK_SetSpeed(1500)
T7B28 000:108.021 - 0.468ms 
T7B28 000:108.092 JLINK_CORESIGHT_Configure(PerformTIFInit=0)
T7B28 000:108.888 - 0.795ms returns 0
T7B28 000:109.019 JLINK_CORESIGHT_ReadAPDPReg(DP reg 0x00)
T7B28 000:109.793   Value=0x6BA02477
T7B28 000:109.860 - 0.848ms returns 0
T7B28 000:109.938 JLINK_CORESIGHT_WriteAPDPReg(DP reg 0x00, 0x0000001F)
T7B28 000:110.456 - 0.517ms returns 0
T7B28 000:110.550 JLINK_CORESIGHT_ReadAPDPReg(DP reg 0x00)
T7B28 000:111.090   Value=0x6BA02477
T7B28 000:111.158 - 0.608ms returns 0
T7B28 000:111.219 JLINK_CORESIGHT_WriteAPDPReg(DP reg 0x02, 0x00000000)
T7B28 000:111.770 - 0.550ms returns 0
T7B28 000:111.866 JLINK_CORESIGHT_WriteAPDPReg(DP reg 0x01, 0x50000000)
T7B28 000:112.391 - 0.525ms returns 0
T7B28 000:112.506 JLINK_CORESIGHT_ReadAPDPReg(DP reg 0x01)
T7B28 000:113.027   Value=0xF0000040
T7B28 000:113.099 - 0.593ms returns 0
T7B28 000:113.162 JLINK_CORESIGHT_WriteAPDPReg(DP reg 0x00, 0x0000001F)
T7B28 000:113.687 - 0.525ms returns 0
T7B28 000:113.788 JLINK_CORESIGHT_ReadAPDPReg(DP reg 0x00)
T7B28 000:116.401   Value=0x6BA02477
T7B28 000:116.497 - 2.708ms returns 0
T7B28 000:116.559 JLINK_CORESIGHT_WriteAPDPReg(DP reg 0x01, 0x54000000)
T7B28 000:117.010 - 0.450ms returns 0
T7B28 000:117.105 JLINK_CORESIGHT_WriteAPDPReg(DP reg 0x01, 0x50000F00)
T7B28 000:117.530 - 0.425ms returns 0
T7B28 000:117.626 JLINK_CORESIGHT_WriteAPDPReg(DP reg 0x02, 0x01000000)
T7B28 000:118.127 - 0.500ms returns 0
T7B28 000:118.228 JLINK_CORESIGHT_WriteAPDPReg(AP reg 0x00, 0x80000002)
T7B28 000:118.721 - 0.493ms returns 0
T7B28 000:118.817 JLINK_CORESIGHT_WriteAPDPReg(AP reg 0x01, 0x80011100)
T7B28 000:119.327 - 0.510ms returns 0
T7B28 000:119.421 JLINK_CORESIGHT_WriteAPDPReg(AP reg 0x03, 0x000000A5)
T7B28 000:119.858 - 0.436ms returns 0
T7B28 000:119.953 JLINK_CORESIGHT_WriteAPDPReg(AP reg 0x00, 0x80000002)
T7B28 000:120.376 - 0.422ms returns 0
T7B28 000:120.472 JLINK_CORESIGHT_WriteAPDPReg(AP reg 0x01, 0x80011100)
T7B28 000:120.893 - 0.420ms returns 0
T7B28 000:120.987 JLINK_CORESIGHT_ReadAPDPReg(AP reg 0x03)
T7B28 000:121.450   Value=0x000000A5
T7B28 000:121.519 - 0.531ms returns 0
T7B28 000:121.579 JLINK_ClrTMS()
T7B28 000:121.907 - 0.326ms 
T7B28 000:127.381 JLINK_SetTCK()
T7B28 000:127.867 - 0.484ms returns 0
T7B28 000:133.304 JLINK_SetRESET()
T7B28 000:133.803 - 0.499ms 
T7B28 000:334.340 JLINK_CORESIGHT_WriteAPDPReg(AP reg 0x00, 0x80000002)
T7B28 000:334.685 - 0.346ms returns 0
T7B28 000:334.700 JLINK_CORESIGHT_WriteAPDPReg(AP reg 0x01, 0x80011100)
T7B28 000:335.000 - 0.299ms returns 0
T7B28 000:335.014 JLINK_CORESIGHT_ReadAPDPReg(AP reg 0x03)
T7B28 000:335.362   Value=0x00000000
T7B28 000:335.376 - 0.362ms returns 0
T7B28 000:335.385 JLINK_CORESIGHT_WriteAPDPReg(AP reg 0x00, 0x80000002)
T7B28 000:335.680 - 0.295ms returns 0
T7B28 000:335.695 JLINK_CORESIGHT_WriteAPDPReg(AP reg 0x01, 0x80011140)
T7B28 000:335.971 - 0.275ms returns 0
T7B28 000:335.986 JLINK_CORESIGHT_ReadAPDPReg(AP reg 0x03)
T7B28 000:336.309   Value=0x00000002
T7B28 000:336.354 - 0.367ms returns 0
T7B28 000:336.362 JLINK_CORESIGHT_WriteAPDPReg(AP reg 0x00, 0x80000002)
T7B28 000:336.674 - 0.312ms returns 0
T7B28 000:336.689 JLINK_CORESIGHT_WriteAPDPReg(AP reg 0x01, 0x80011120)
T7B28 000:336.919 - 0.230ms returns 0
T7B28 000:336.934 JLINK_CORESIGHT_WriteAPDPReg(AP reg 0x03, 0x00000055)
T7B28 000:337.100 - 0.165ms returns 0
T7B28 000:337.115 JLINK_CORESIGHT_WriteAPDPReg(AP reg 0x00, 0x80000002)
T7B28 000:337.283 - 0.168ms returns 0
T7B28 000:337.294 JLINK_CORESIGHT_WriteAPDPReg(AP reg 0x01, 0x80011140)
T7B28 000:337.511 - 0.216ms returns 0
T7B28 000:337.522 JLINK_CORESIGHT_ReadAPDPReg(AP reg 0x03)
T7B28 000:337.737   Value=0x00000002
T7B28 000:337.748 - 0.226ms returns 0
T7B28 000:337.755 JLINK_CORESIGHT_ReadAPDPReg(AP reg 0x03)
T7B28 000:337.978   Value=0x00000002
T7B28 000:337.989 - 0.234ms returns 0
T7B28 000:337.996 JLINK_CORESIGHT_ReadAPDPReg(AP reg 0x03)
T7B28 000:338.212   Value=0x00000002
T7B28 000:338.223 - 0.227ms returns 0
T7B28 000:338.230 JLINK_CORESIGHT_ReadAPDPReg(AP reg 0x03)
T7B28 000:338.510   Value=0x00000002
T7B28 000:338.521 - 0.290ms returns 0
T7B28 000:338.528 JLINK_CORESIGHT_ReadAPDPReg(AP reg 0x03)
T7B28 000:338.754   Value=0x00000002
T7B28 000:338.765 - 0.237ms returns 0
T7B28 000:338.772 JLINK_CORESIGHT_ReadAPDPReg(AP reg 0x03)
T7B28 000:338.989   Value=0x00000002
T7B28 000:339.000 - 0.228ms returns 0
T7B28 000:339.007 JLINK_CORESIGHT_ReadAPDPReg(AP reg 0x03)
T7B28 000:339.229   Value=0x00000002
T7B28 000:339.241 - 0.233ms returns 0
T7B28 000:339.247 JLINK_CORESIGHT_ReadAPDPReg(AP reg 0x03)
T7B28 000:339.512   Value=0x00000002
T7B28 000:339.523 - 0.276ms returns 0
T7B28 000:339.530 JLINK_CORESIGHT_ReadAPDPReg(AP reg 0x03)
T7B28 000:339.751   Value=0x00000002
T7B28 000:339.761 - 0.230ms returns 0
T7B28 000:339.768 JLINK_CORESIGHT_ReadAPDPReg(AP reg 0x03)
T7B28 000:339.983   Value=0x00000002
T7B28 000:339.994 - 0.226ms returns 0
T7B28 000:340.001 JLINK_CORESIGHT_ReadAPDPReg(AP reg 0x03)
T7B28 000:340.221   Value=0x00000002
T7B28 000:340.232 - 0.230ms returns 0
T7B28 000:340.239 JLINK_CORESIGHT_ReadAPDPReg(AP reg 0x03)
T7B28 000:340.509   Value=0x00000002
T7B28 000:340.520 - 0.280ms returns 0
T7B28 000:340.527 JLINK_CORESIGHT_ReadAPDPReg(AP reg 0x03)
T7B28 000:340.745   Value=0x00000002
T7B28 000:340.755 - 0.228ms returns 0
T7B28 000:340.762 JLINK_CORESIGHT_ReadAPDPReg(AP reg 0x03)
T7B28 000:340.983   Value=0x00000002
T7B28 000:340.995 - 0.232ms returns 0
T7B28 000:341.002 JLINK_CORESIGHT_ReadAPDPReg(AP reg 0x03)
T7B28 000:341.224   Value=0x00000002
T7B28 000:341.235 - 0.234ms returns 0
T7B28 000:341.243 JLINK_CORESIGHT_ReadAPDPReg(AP reg 0x03)
T7B28 000:341.509   Value=0x00000002
T7B28 000:341.521 - 0.278ms returns 0
T7B28 000:341.528 JLINK_CORESIGHT_ReadAPDPReg(AP reg 0x03)
T7B28 000:341.750   Value=0x00000002
T7B28 000:341.760 - 0.232ms returns 0
T7B28 000:341.767 JLINK_CORESIGHT_ReadAPDPReg(AP reg 0x03)
T7B28 000:342.029   Value=0x00000002
T7B28 000:342.044 - 0.276ms returns 0
T7B28 000:342.052 JLINK_CORESIGHT_ReadAPDPReg(AP reg 0x03)
T7B28 000:342.290   Value=0x00000002
T7B28 000:342.301 - 0.249ms returns 0
T7B28 000:342.308 JLINK_CORESIGHT_ReadAPDPReg(AP reg 0x03)
T7B28 000:342.543   Value=0x00000002
T7B28 000:342.554 - 0.245ms returns 0
T7B28 000:342.561 JLINK_CORESIGHT_ReadAPDPReg(AP reg 0x03)
T7B28 000:342.787   Value=0x00000002
T7B28 000:342.801 - 0.240ms returns 0
T7B28 000:342.808 JLINK_CORESIGHT_ReadAPDPReg(AP reg 0x03)
T7B28 000:343.077   Value=0x00000002
T7B28 000:343.092 - 0.283ms returns 0
T7B28 000:343.099 JLINK_CORESIGHT_ReadAPDPReg(AP reg 0x03)
T7B28 000:343.364   Value=0x00000002
T7B28 000:343.378 - 0.278ms returns 0
T7B28 000:343.385 JLINK_CORESIGHT_ReadAPDPReg(AP reg 0x03)
T7B28 000:343.608   Value=0x00000002
T7B28 000:343.619 - 0.234ms returns 0
T7B28 000:343.626 JLINK_CORESIGHT_ReadAPDPReg(AP reg 0x03)
T7B28 000:343.856   Value=0x00000002
T7B28 000:343.867 - 0.240ms returns 0
T7B28 000:343.874 JLINK_CORESIGHT_ReadAPDPReg(AP reg 0x03)
T7B28 000:344.108   Value=0x00000002
T7B28 000:344.120 - 0.245ms returns 0
T7B28 000:344.126 JLINK_CORESIGHT_ReadAPDPReg(AP reg 0x03)
T7B28 000:344.354   Value=0x00000002
T7B28 000:344.364 - 0.238ms returns 0
T7B28 000:344.371 JLINK_CORESIGHT_ReadAPDPReg(AP reg 0x03)
T7B28 000:344.578   Value=0x00000002
T7B28 000:344.590 - 0.218ms returns 0
T7B28 000:344.596 JLINK_CORESIGHT_ReadAPDPReg(AP reg 0x03)
T7B28 000:344.824   Value=0x00000002
T7B28 000:344.835 - 0.239ms returns 0
T7B28 000:344.843 JLINK_CORESIGHT_ReadAPDPReg(AP reg 0x03)
T7B28 000:345.074   Value=0x00000002
T7B28 000:345.085 - 0.242ms returns 0
T7B28 000:345.092 JLINK_CORESIGHT_ReadAPDPReg(AP reg 0x03)
T7B28 000:345.371   Value=0x00000002
T7B28 000:345.407 - 0.314ms returns 0
T7B28 000:345.433 JLINK_CORESIGHT_ReadAPDPReg(AP reg 0x03)
T7B28 000:345.689   Value=0x00000002
T7B28 000:345.704 - 0.271ms returns 0
T7B28 000:345.712 JLINK_CORESIGHT_ReadAPDPReg(AP reg 0x03)
T7B28 000:346.096   Value=0x00000002
T7B28 000:346.110 - 0.398ms returns 0
T7B28 000:346.118 JLINK_CORESIGHT_ReadAPDPReg(AP reg 0x03)
T7B28 000:346.404   Value=0x00000002
T7B28 000:346.418 - 0.300ms returns 0
T7B28 000:346.426 JLINK_CORESIGHT_ReadAPDPReg(AP reg 0x03)
T7B28 000:346.708   Value=0x00000002
T7B28 000:346.722 - 0.296ms returns 0
T7B28 000:346.730 JLINK_CORESIGHT_ReadAPDPReg(AP reg 0x03)
T7B28 000:346.968   Value=0x00000002
T7B28 000:346.985 - 0.255ms returns 0
T7B28 000:346.993 JLINK_CORESIGHT_ReadAPDPReg(AP reg 0x03)
T7B28 000:347.227   Value=0x00000002
T7B28 000:347.244 - 0.251ms returns 0
T7B28 000:347.255 JLINK_CORESIGHT_ReadAPDPReg(AP reg 0x03)
T7B28 000:347.545   Value=0x00000002
T7B28 000:347.560 - 0.304ms returns 0
T7B28 000:347.568 JLINK_CORESIGHT_ReadAPDPReg(AP reg 0x03)
T7B28 000:347.787   Value=0x00000002
T7B28 000:347.798 - 0.230ms returns 0
T7B28 000:347.805 JLINK_CORESIGHT_ReadAPDPReg(AP reg 0x03)
T7B28 000:348.031   Value=0x00000002
T7B28 000:348.043 - 0.237ms returns 0
T7B28 000:348.050 JLINK_CORESIGHT_ReadAPDPReg(AP reg 0x03)
T7B28 000:348.269   Value=0x00000002
T7B28 000:348.281 - 0.230ms returns 0
T7B28 000:348.288 JLINK_CORESIGHT_ReadAPDPReg(AP reg 0x03)
T7B28 000:348.504   Value=0x00000000
T7B28 000:348.514 - 0.226ms returns 0
T7B28 000:348.522 JLINK_CORESIGHT_WriteAPDPReg(AP reg 0x00, 0x80000002)
T7B28 000:348.704 - 0.182ms returns 0
T7B28 000:348.715 JLINK_CORESIGHT_WriteAPDPReg(AP reg 0x01, 0x80011130)
T7B28 000:348.875 - 0.160ms returns 0
T7B28 000:348.886 JLINK_CORESIGHT_ReadAPDPReg(AP reg 0x03)
T7B28 000:349.099   Value=0x000000C6
T7B28 000:349.120 - 0.233ms returns 0
T7B28 000:349.131 JLINK_CORESIGHT_WriteAPDPReg(AP reg 0x00, 0x80000002)
T7B28 000:349.316 - 0.184ms returns 0
T7B28 000:349.326 JLINK_CORESIGHT_WriteAPDPReg(AP reg 0x01, 0x80011140)
T7B28 000:349.510 - 0.183ms returns 0
T7B28 000:349.521 JLINK_CORESIGHT_ReadAPDPReg(AP reg 0x03)
T7B28 000:349.743   Value=0x00000002
T7B28 000:349.754 - 0.233ms returns 0
T7B28 000:349.761 JLINK_CORESIGHT_WriteAPDPReg(AP reg 0x00, 0x80000002)
T7B28 000:349.951 - 0.189ms returns 0
T7B28 000:349.962 JLINK_CORESIGHT_WriteAPDPReg(AP reg 0x01, 0x80011120)
T7B28 000:350.116 - 0.154ms returns 0
T7B28 000:350.127 JLINK_CORESIGHT_WriteAPDPReg(AP reg 0x03, 0x3A010001)
T7B28 000:350.312 - 0.185ms returns 0
T7B28 000:350.323 JLINK_CORESIGHT_WriteAPDPReg(AP reg 0x00, 0x80000002)
T7B28 000:350.511 - 0.188ms returns 0
T7B28 000:350.525 JLINK_CORESIGHT_WriteAPDPReg(AP reg 0x01, 0x80011140)
T7B28 000:350.684 - 0.158ms returns 0
T7B28 000:350.695 JLINK_CORESIGHT_ReadAPDPReg(AP reg 0x03)
T7B28 000:350.914   Value=0x00000002
T7B28 000:350.925 - 0.229ms returns 0
T7B28 000:350.932 JLINK_CORESIGHT_WriteAPDPReg(AP reg 0x00, 0x80000002)
T7B28 000:351.134 - 0.202ms returns 0
T7B28 000:351.149 JLINK_CORESIGHT_WriteAPDPReg(AP reg 0x01, 0x80011120)
T7B28 000:351.383 - 0.233ms returns 0
T7B28 000:351.439 JLINK_CORESIGHT_WriteAPDPReg(AP reg 0x03, 0x000003C5)
T7B28 000:351.658 - 0.238ms returns 0
T7B28 000:351.672 JLINK_CORESIGHT_WriteAPDPReg(AP reg 0x00, 0x80000002)
T7B28 000:351.829 - 0.156ms returns 0
T7B28 000:351.840 JLINK_CORESIGHT_WriteAPDPReg(AP reg 0x01, 0x80011140)
T7B28 000:351.999 - 0.158ms returns 0
T7B28 000:352.010 JLINK_CORESIGHT_ReadAPDPReg(AP reg 0x03)
T7B28 000:352.236   Value=0x00000002
T7B28 000:352.247 - 0.237ms returns 0
T7B28 000:352.254 JLINK_CORESIGHT_ReadAPDPReg(AP reg 0x03)
T7B28 000:352.509   Value=0x00000002
T7B28 000:352.519 - 0.264ms returns 0
T7B28 000:352.526 JLINK_CORESIGHT_ReadAPDPReg(AP reg 0x03)
T7B28 000:352.781   Value=0x00000002
T7B28 000:352.795 - 0.269ms returns 0
T7B28 000:352.803 JLINK_CORESIGHT_ReadAPDPReg(AP reg 0x03)
T7B28 000:353.032   Value=0x00000002
T7B28 000:353.044 - 0.240ms returns 0
T7B28 000:353.051 JLINK_CORESIGHT_ReadAPDPReg(AP reg 0x03)
T7B28 000:353.273   Value=0x00000002
T7B28 000:353.284 - 0.233ms returns 0
T7B28 000:353.291 JLINK_CORESIGHT_ReadAPDPReg(AP reg 0x03)
T7B28 000:353.509   Value=0x00000000
T7B28 000:353.520 - 0.230ms returns 0
T7B28 000:353.527 JLINK_CORESIGHT_WriteAPDPReg(AP reg 0x00, 0x80000002)
T7B28 000:353.724 - 0.196ms returns 0
T7B28 000:353.739 JLINK_CORESIGHT_WriteAPDPReg(AP reg 0x01, 0x80011130)
T7B28 000:353.905 - 0.166ms returns 0
T7B28 000:353.915 JLINK_CORESIGHT_ReadAPDPReg(AP reg 0x03)
T7B28 000:354.168   Value=0x3A2A0081
T7B28 000:354.182 - 0.266ms returns 0
T7B28 000:354.190 JLINK_CORESIGHT_WriteAPDPReg(AP reg 0x00, 0x80000002)
T7B28 000:354.352 - 0.162ms returns 0
T7B28 000:354.363 JLINK_CORESIGHT_WriteAPDPReg(AP reg 0x01, 0x80011140)
T7B28 000:354.538 - 0.175ms returns 0
T7B28 000:354.549 JLINK_CORESIGHT_ReadAPDPReg(AP reg 0x03)
T7B28 000:354.768   Value=0x00000000
T7B28 000:354.778 - 0.229ms returns 0
T7B28 000:354.785 JLINK_CORESIGHT_WriteAPDPReg(AP reg 0x00, 0x80000002)
T7B28 000:354.971 - 0.185ms returns 0
T7B28 000:354.982 JLINK_CORESIGHT_WriteAPDPReg(AP reg 0x01, 0x80011130)
T7B28 000:355.189 - 0.207ms returns 0
T7B28 000:355.201 JLINK_CORESIGHT_ReadAPDPReg(AP reg 0x03)
T7B28 000:355.459   Value=0x808D5B00
T7B28 000:355.473 - 0.272ms returns 0
T7B28 000:355.481 JLINK_CORESIGHT_WriteAPDPReg(AP reg 0x00, 0x80000002)
T7B28 000:355.679 - 0.197ms returns 0
T7B28 000:355.693 JLINK_CORESIGHT_WriteAPDPReg(AP reg 0x01, 0x80011140)
T7B28 000:355.855 - 0.161ms returns 0
T7B28 000:355.867 JLINK_CORESIGHT_ReadAPDPReg(AP reg 0x03)
T7B28 000:356.088   Value=0x00000000
T7B28 000:356.100 - 0.232ms returns 0
T7B28 000:356.107 JLINK_CORESIGHT_WriteAPDPReg(AP reg 0x00, 0x80000002)
T7B28 000:356.272 - 0.164ms returns 0
T7B28 000:356.282 JLINK_CORESIGHT_WriteAPDPReg(AP reg 0x01, 0x80011130)
T7B28 000:356.511 - 0.229ms returns 0
T7B28 000:356.528 JLINK_CORESIGHT_ReadAPDPReg(AP reg 0x03)
T7B28 000:356.750   Value=0x0306070A
T7B28 000:356.760 - 0.232ms returns 0
T7B28 000:356.772 JLINK_CORESIGHT_WriteAPDPReg(AP reg 0x00, 0x80000002)
T7B28 000:356.943 - 0.170ms returns 0
T7B28 000:356.958 JLINK_CORESIGHT_WriteAPDPReg(AP reg 0x01, 0x80011140)
T7B28 000:357.116 - 0.157ms returns 0
T7B28 000:357.131 JLINK_CORESIGHT_ReadAPDPReg(AP reg 0x03)
T7B28 000:357.356   Value=0x00000000
T7B28 000:357.367 - 0.236ms returns 0
T7B28 000:357.379 JLINK_CORESIGHT_WriteAPDPReg(AP reg 0x00, 0x80000002)
T7B28 000:357.635 - 0.256ms returns 0
T7B28 000:357.649 JLINK_CORESIGHT_WriteAPDPReg(AP reg 0x01, 0x80011130)
T7B28 000:357.848 - 0.198ms returns 0
T7B28 000:357.869 JLINK_CORESIGHT_ReadAPDPReg(AP reg 0x03)
T7B28 000:358.092   Value=0x30545408
T7B28 000:358.142 - 0.273ms returns 0
T7B28 000:358.154 JLINK_CORESIGHT_WriteAPDPReg(AP reg 0x00, 0x80000002)
T7B28 000:358.375 - 0.220ms returns 0
T7B28 000:358.396 JLINK_CORESIGHT_WriteAPDPReg(AP reg 0x01, 0x80011140)
T7B28 000:358.618 - 0.221ms returns 0
T7B28 000:358.634 JLINK_CORESIGHT_ReadAPDPReg(AP reg 0x03)
T7B28 000:358.893   Value=0x00000000
T7B28 000:358.907 - 0.272ms returns 0
T7B28 000:358.921 JLINK_CORESIGHT_WriteAPDPReg(AP reg 0x00, 0x80000002)
T7B28 000:359.088 - 0.166ms returns 0
T7B28 000:359.103 JLINK_CORESIGHT_WriteAPDPReg(AP reg 0x01, 0x80011130)
T7B28 000:359.271 - 0.167ms returns 0
T7B28 000:359.286 JLINK_CORESIGHT_ReadAPDPReg(AP reg 0x03)
T7B28 000:359.547   Value=0x54FE44C9
T7B28 000:359.561 - 0.275ms returns 0
T7B28 000:359.576 JLINK_CORESIGHT_WriteAPDPReg(AP reg 0x00, 0x80000002)
T7B28 000:359.738 - 0.162ms returns 0
T7B28 000:359.754 JLINK_CORESIGHT_WriteAPDPReg(AP reg 0x01, 0x80011140)
T7B28 000:359.912 - 0.157ms returns 0
T7B28 000:359.926 JLINK_CORESIGHT_ReadAPDPReg(AP reg 0x03)
T7B28 000:360.186   Value=0x00000000
T7B28 000:360.200 - 0.274ms returns 0
T7B28 000:360.215 JLINK_CORESIGHT_WriteAPDPReg(AP reg 0x00, 0x80000002)
T7B28 000:360.388 - 0.173ms returns 0
T7B28 000:360.404 JLINK_CORESIGHT_WriteAPDPReg(AP reg 0x01, 0x80011130)
T7B28 000:360.610 - 0.205ms returns 0
T7B28 000:360.624 JLINK_CORESIGHT_ReadAPDPReg(AP reg 0x03)
T7B28 000:360.880   Value=0x32355536
T7B28 000:360.894 - 0.270ms returns 0
T7B28 000:360.908 JLINK_CORESIGHT_WriteAPDPReg(AP reg 0x00, 0x80000002)
T7B28 000:361.079 - 0.170ms returns 0
T7B28 000:361.094 JLINK_CORESIGHT_WriteAPDPReg(AP reg 0x01, 0x80011140)
T7B28 000:361.253 - 0.158ms returns 0
T7B28 000:361.268 JLINK_CORESIGHT_ReadAPDPReg(AP reg 0x03)
T7B28 000:361.545   Value=0x00000000
T7B28 000:361.559 - 0.291ms returns 0
T7B28 000:361.574 JLINK_CORESIGHT_WriteAPDPReg(AP reg 0x00, 0x80000002)
T7B28 000:361.777 - 0.203ms returns 0
T7B28 000:361.797 JLINK_CORESIGHT_WriteAPDPReg(AP reg 0x01, 0x80011130)
T7B28 000:362.025 - 0.227ms returns 0
T7B28 000:362.045 JLINK_CORESIGHT_ReadAPDPReg(AP reg 0x03)
T7B28 000:362.283   Value=0x79022D38
T7B28 000:362.316 - 0.270ms returns 0
T7B28 000:362.331 JLINK_CORESIGHT_WriteAPDPReg(AP reg 0x00, 0x80000002)
T7B28 000:362.559 - 0.228ms returns 0
T7B28 000:362.579 JLINK_CORESIGHT_WriteAPDPReg(AP reg 0x01, 0x80011140)
T7B28 000:362.859 - 0.279ms returns 0
T7B28 000:362.879 JLINK_CORESIGHT_ReadAPDPReg(AP reg 0x03)
T7B28 000:363.150   Value=0x00000000
T7B28 000:363.164 - 0.284ms returns 0
T7B28 000:363.178 JLINK_CORESIGHT_WriteAPDPReg(AP reg 0x00, 0x80000002)
T7B28 000:363.418 - 0.239ms returns 0
T7B28 000:363.439 JLINK_CORESIGHT_WriteAPDPReg(AP reg 0x01, 0x80011130)
T7B28 000:363.651 - 0.211ms returns 0
T7B28 000:363.672 JLINK_CORESIGHT_ReadAPDPReg(AP reg 0x03)
T7B28 000:363.910   Value=0x4B37528E
T7B28 000:363.925 - 0.252ms returns 0
T7B28 000:363.939 JLINK_CORESIGHT_WriteAPDPReg(AP reg 0x00, 0x80000002)
T7B28 000:364.134 - 0.194ms returns 0
T7B28 000:364.150 JLINK_CORESIGHT_WriteAPDPReg(AP reg 0x01, 0x80011140)
T7B28 000:364.313 - 0.163ms returns 0
T7B28 000:364.329 JLINK_CORESIGHT_ReadAPDPReg(AP reg 0x03)
T7B28 000:364.541   Value=0x00000000
T7B28 000:364.552 - 0.222ms returns 0
T7B28 000:364.564 JLINK_CORESIGHT_WriteAPDPReg(AP reg 0x00, 0x80000002)
T7B28 000:364.733 - 0.168ms returns 0
T7B28 000:364.748 JLINK_CORESIGHT_WriteAPDPReg(AP reg 0x01, 0x80011130)
T7B28 000:364.913 - 0.165ms returns 0
T7B28 000:364.929 JLINK_CORESIGHT_ReadAPDPReg(AP reg 0x03)
T7B28 000:365.160   Value=0x31503841
T7B28 000:365.172 - 0.243ms returns 0
T7B28 000:365.183 JLINK_CORESIGHT_WriteAPDPReg(AP reg 0x00, 0x80000002)
T7B28 000:365.377 - 0.193ms returns 0
T7B28 000:365.391 JLINK_CORESIGHT_WriteAPDPReg(AP reg 0x01, 0x80011140)
T7B28 000:365.612 - 0.220ms returns 0
T7B28 000:365.634 JLINK_CORESIGHT_ReadAPDPReg(AP reg 0x03)
T7B28 000:366.095   Value=0x00000000
T7B28 000:366.110 - 0.475ms returns 0
T7B28 000:366.124 JLINK_CORESIGHT_WriteAPDPReg(AP reg 0x00, 0x80000002)
T7B28 000:366.516 - 0.392ms returns 0
T7B28 000:366.539 JLINK_CORESIGHT_WriteAPDPReg(AP reg 0x01, 0x80011130)
T7B28 000:366.771 - 0.231ms returns 0
T7B28 000:366.791 JLINK_CORESIGHT_ReadAPDPReg(AP reg 0x03)
T7B28 000:367.331   Value=0x434C464B
T7B28 000:367.345 - 0.553ms returns 0
T7B28 000:367.359 JLINK_CORESIGHT_WriteAPDPReg(AP reg 0x00, 0x80000002)
T7B28 000:367.585 - 0.225ms returns 0
T7B28 000:367.606 JLINK_CORESIGHT_WriteAPDPReg(AP reg 0x01, 0x80011140)
T7B28 000:367.777 - 0.171ms returns 0
T7B28 000:367.794 JLINK_CORESIGHT_ReadAPDPReg(AP reg 0x03)
T7B28 000:368.036   Value=0x00000000
T7B28 000:368.048 - 0.253ms returns 0
T7B28 000:368.060 JLINK_CORESIGHT_WriteAPDPReg(AP reg 0x00, 0x80000002)
T7B28 000:368.257 - 0.197ms returns 0
T7B28 000:368.279 JLINK_CORESIGHT_WriteAPDPReg(AP reg 0x01, 0x80011130)
T7B28 000:368.509 - 0.231ms returns 0
T7B28 000:368.526 JLINK_CORESIGHT_ReadAPDPReg(AP reg 0x03)
T7B28 000:368.787   Value=0x20204341
T7B28 000:368.798 - 0.272ms returns 0
T7B28 000:368.810 JLINK_CORESIGHT_WriteAPDPReg(AP reg 0x00, 0x80000002)
T7B28 000:368.975 - 0.164ms returns 0
T7B28 000:368.991 JLINK_CORESIGHT_WriteAPDPReg(AP reg 0x01, 0x80011140)
T7B28 000:369.184 - 0.193ms returns 0
T7B28 000:369.199 JLINK_CORESIGHT_ReadAPDPReg(AP reg 0x03)
T7B28 000:369.417   Value=0x00000000
T7B28 000:369.428 - 0.229ms returns 0
T7B28 000:369.440 JLINK_CORESIGHT_WriteAPDPReg(AP reg 0x00, 0x80000002)
T7B28 000:369.611 - 0.171ms returns 0
T7B28 000:369.627 JLINK_CORESIGHT_WriteAPDPReg(AP reg 0x01, 0x80011130)
T7B28 000:369.799 - 0.172ms returns 0
T7B28 000:369.814 JLINK_CORESIGHT_ReadAPDPReg(AP reg 0x03)
T7B28 000:370.078   Value=0x0003A920
T7B28 000:370.092 - 0.277ms returns 0
T7B28 000:370.512 JLINK_CORESIGHT_WriteAPDPReg(AP reg 0x00, 0x80000002)
T7B28 000:370.689 - 0.176ms returns 0
T7B28 000:370.701 JLINK_CORESIGHT_WriteAPDPReg(AP reg 0x01, 0x80011140)
T7B28 000:370.872 - 0.170ms returns 0
T7B28 000:370.883 JLINK_CORESIGHT_ReadAPDPReg(AP reg 0x03)
T7B28 000:371.111   Value=0x00000002
T7B28 000:371.122 - 0.238ms returns 0
T7B28 000:371.129 JLINK_CORESIGHT_WriteAPDPReg(AP reg 0x00, 0x80000002)
T7B28 000:371.289 - 0.159ms returns 0
T7B28 000:371.300 JLINK_CORESIGHT_WriteAPDPReg(AP reg 0x01, 0x80011120)
T7B28 000:371.510 - 0.210ms returns 0
T7B28 000:371.521 JLINK_CORESIGHT_WriteAPDPReg(AP reg 0x03, 0x39020001)
T7B28 000:371.709 - 0.188ms returns 0
T7B28 000:371.721 JLINK_CORESIGHT_WriteAPDPReg(AP reg 0x00, 0x80000002)
T7B28 000:371.891 - 0.170ms returns 0
T7B28 000:371.901 JLINK_CORESIGHT_WriteAPDPReg(AP reg 0x01, 0x80011140)
T7B28 000:372.066 - 0.164ms returns 0
T7B28 000:372.077 JLINK_CORESIGHT_ReadAPDPReg(AP reg 0x03)
T7B28 000:372.303   Value=0x00000002
T7B28 000:372.314 - 0.237ms returns 0
T7B28 000:372.321 JLINK_CORESIGHT_WriteAPDPReg(AP reg 0x00, 0x80000002)
T7B28 000:372.504 - 0.183ms returns 0
T7B28 000:372.514 JLINK_CORESIGHT_WriteAPDPReg(AP reg 0x01, 0x80011120)
T7B28 000:372.678 - 0.164ms returns 0
T7B28 000:372.689 JLINK_CORESIGHT_WriteAPDPReg(AP reg 0x03, 0x0003B312)
T7B28 000:372.879 - 0.190ms returns 0
T7B28 000:372.891 JLINK_CORESIGHT_WriteAPDPReg(AP reg 0x00, 0x80000002)
T7B28 000:373.082 - 0.191ms returns 0
T7B28 000:373.094 JLINK_CORESIGHT_WriteAPDPReg(AP reg 0x01, 0x80011140)
T7B28 000:373.258 - 0.164ms returns 0
T7B28 000:373.268 JLINK_CORESIGHT_ReadAPDPReg(AP reg 0x03)
T7B28 000:373.509   Value=0x00000000
T7B28 000:373.520 - 0.251ms returns 0
T7B28 000:373.527 JLINK_CORESIGHT_WriteAPDPReg(AP reg 0x00, 0x80000002)
T7B28 000:373.720 - 0.192ms returns 0
T7B28 000:373.731 JLINK_CORESIGHT_WriteAPDPReg(AP reg 0x01, 0x80011130)
T7B28 000:373.900 - 0.169ms returns 0
T7B28 000:373.910 JLINK_CORESIGHT_ReadAPDPReg(AP reg 0x03)
T7B28 000:374.135   Value=0xB90A0081
T7B28 000:374.146 - 0.235ms returns 0
T7B28 000:374.153 JLINK_CORESIGHT_WriteAPDPReg(AP reg 0x00, 0x80000002)
T7B28 000:374.321 - 0.168ms returns 0
T7B28 000:374.332 JLINK_CORESIGHT_WriteAPDPReg(AP reg 0x01, 0x80011140)
T7B28 000:374.549 - 0.216ms returns 0
T7B28 000:374.564 JLINK_CORESIGHT_ReadAPDPReg(AP reg 0x03)
T7B28 000:374.830   Value=0x00000000
T7B28 000:374.844 - 0.280ms returns 0
T7B28 000:374.852 JLINK_CORESIGHT_WriteAPDPReg(AP reg 0x00, 0x80000002)
T7B28 000:375.051 - 0.199ms returns 0
T7B28 000:375.063 JLINK_CORESIGHT_WriteAPDPReg(AP reg 0x01, 0x80011130)
T7B28 000:375.236 - 0.173ms returns 0
T7B28 000:375.247 JLINK_CORESIGHT_ReadAPDPReg(AP reg 0x03)
T7B28 000:375.509   Value=0xFFFFFFC0
T7B28 000:375.519 - 0.272ms returns 0
T7B28 000:375.526 JLINK_CORESIGHT_WriteAPDPReg(AP reg 0x00, 0x80000002)
T7B28 000:375.689 - 0.162ms returns 0
T7B28 000:375.700 JLINK_CORESIGHT_WriteAPDPReg(AP reg 0x01, 0x80011140)
T7B28 000:375.927 - 0.226ms returns 0
T7B28 000:375.942 JLINK_CORESIGHT_ReadAPDPReg(AP reg 0x03)
T7B28 000:376.173   Value=0x00000000
T7B28 000:376.184 - 0.242ms returns 0
T7B28 000:376.192 JLINK_CORESIGHT_WriteAPDPReg(AP reg 0x00, 0x80000002)
T7B28 000:376.357 - 0.165ms returns 0
T7B28 000:376.368 JLINK_CORESIGHT_WriteAPDPReg(AP reg 0x01, 0x80011130)
T7B28 000:376.545 - 0.177ms returns 0
T7B28 000:376.556 JLINK_CORESIGHT_ReadAPDPReg(AP reg 0x03)
T7B28 000:376.776   Value=0xFFFFFFFF
T7B28 000:376.788 - 0.232ms returns 0
T7B28 000:376.794 JLINK_CORESIGHT_WriteAPDPReg(AP reg 0x00, 0x80000002)
T7B28 000:377.064 - 0.269ms returns 0
T7B28 000:377.081 JLINK_CORESIGHT_WriteAPDPReg(AP reg 0x01, 0x80011140)
T7B28 000:377.331 - 0.250ms returns 0
T7B28 000:377.346 JLINK_CORESIGHT_ReadAPDPReg(AP reg 0x03)
T7B28 000:377.572   Value=0x00000000
T7B28 000:377.583 - 0.237ms returns 0
T7B28 000:377.591 JLINK_CORESIGHT_WriteAPDPReg(AP reg 0x00, 0x80000002)
T7B28 000:377.761 - 0.170ms returns 0
T7B28 000:377.772 JLINK_CORESIGHT_WriteAPDPReg(AP reg 0x01, 0x80011130)
T7B28 000:377.942 - 0.169ms returns 0
T7B28 000:377.953 JLINK_CORESIGHT_ReadAPDPReg(AP reg 0x03)
T7B28 000:378.178   Value=0x000385FF
T7B28 000:378.189 - 0.236ms returns 0
T7B28 000:378.245 JLINK_CORESIGHT_WriteAPDPReg(AP reg 0x00, 0x80000002)
T7B28 000:378.548 - 0.302ms returns 0
T7B28 000:378.562 JLINK_CORESIGHT_WriteAPDPReg(AP reg 0x01, 0x80011140)
T7B28 000:378.764 - 0.201ms returns 0
T7B28 000:378.779 JLINK_CORESIGHT_ReadAPDPReg(AP reg 0x03)
T7B28 000:379.084   Value=0x00000002
T7B28 000:379.118 - 0.339ms returns 0
T7B28 000:379.126 JLINK_CORESIGHT_WriteAPDPReg(AP reg 0x00, 0x80000002)
T7B28 000:379.327 - 0.200ms returns 0
T7B28 000:379.341 JLINK_CORESIGHT_WriteAPDPReg(AP reg 0x01, 0x80011120)
T7B28 000:379.580 - 0.238ms returns 0
T7B28 000:379.613 JLINK_CORESIGHT_WriteAPDPReg(AP reg 0x03, 0x2C010001)
T7B28 000:379.858 - 0.245ms returns 0
T7B28 000:379.872 JLINK_CORESIGHT_WriteAPDPReg(AP reg 0x00, 0x80000002)
T7B28 000:380.048 - 0.175ms returns 0
T7B28 000:380.061 JLINK_CORESIGHT_WriteAPDPReg(AP reg 0x01, 0x80011140)
T7B28 000:380.233 - 0.171ms returns 0
T7B28 000:380.244 JLINK_CORESIGHT_ReadAPDPReg(AP reg 0x03)
T7B28 000:380.522   Value=0x00000002
T7B28 000:380.537 - 0.293ms returns 0
T7B28 000:380.548 JLINK_CORESIGHT_WriteAPDPReg(AP reg 0x00, 0x80000002)
T7B28 000:380.758 - 0.210ms returns 0
T7B28 000:380.771 JLINK_CORESIGHT_WriteAPDPReg(AP reg 0x01, 0x80011120)
T7B28 000:380.947 - 0.176ms returns 0
T7B28 000:380.961 JLINK_CORESIGHT_WriteAPDPReg(AP reg 0x03, 0x000003D3)
T7B28 000:381.201 - 0.240ms returns 0
T7B28 000:381.215 JLINK_CORESIGHT_WriteAPDPReg(AP reg 0x00, 0x80000002)
T7B28 000:381.419 - 0.203ms returns 0
T7B28 000:381.434 JLINK_CORESIGHT_WriteAPDPReg(AP reg 0x01, 0x80011140)
T7B28 000:381.647 - 0.212ms returns 0
T7B28 000:381.661 JLINK_CORESIGHT_ReadAPDPReg(AP reg 0x03)
T7B28 000:381.946   Value=0x00000002
T7B28 000:381.962 - 0.301ms returns 0
T7B28 000:381.971 JLINK_CORESIGHT_ReadAPDPReg(AP reg 0x03)
T7B28 000:382.215   Value=0x00000002
T7B28 000:382.227 - 0.257ms returns 0
T7B28 000:382.235 JLINK_CORESIGHT_ReadAPDPReg(AP reg 0x03)
T7B28 000:382.519   Value=0x00000002
T7B28 000:382.532 - 0.296ms returns 0
T7B28 000:382.539 JLINK_CORESIGHT_ReadAPDPReg(AP reg 0x03)
T7B28 000:382.768   Value=0x00000002
T7B28 000:382.778 - 0.238ms returns 0
T7B28 000:382.788 JLINK_CORESIGHT_ReadAPDPReg(AP reg 0x03)
T7B28 000:383.020   Value=0x00000002
T7B28 000:383.032 - 0.244ms returns 0
T7B28 000:383.039 JLINK_CORESIGHT_ReadAPDPReg(AP reg 0x03)
T7B28 000:383.269   Value=0x00000002
T7B28 000:383.279 - 0.240ms returns 0
T7B28 000:383.286 JLINK_CORESIGHT_ReadAPDPReg(AP reg 0x03)
T7B28 000:383.509   Value=0x00000002
T7B28 000:383.521 - 0.234ms returns 0
T7B28 000:383.528 JLINK_CORESIGHT_ReadAPDPReg(AP reg 0x03)
T7B28 000:383.756   Value=0x00000002
T7B28 000:383.766 - 0.238ms returns 0
T7B28 000:383.773 JLINK_CORESIGHT_ReadAPDPReg(AP reg 0x03)
T7B28 000:384.010   Value=0x00000002
T7B28 000:384.021 - 0.248ms returns 0
T7B28 000:384.028 JLINK_CORESIGHT_ReadAPDPReg(AP reg 0x03)
T7B28 000:384.256   Value=0x00000002
T7B28 000:384.266 - 0.238ms returns 0
T7B28 000:384.273 JLINK_CORESIGHT_ReadAPDPReg(AP reg 0x03)
T7B28 000:384.508   Value=0x00000002
T7B28 000:384.518 - 0.245ms returns 0
T7B28 000:384.525 JLINK_CORESIGHT_ReadAPDPReg(AP reg 0x03)
T7B28 000:384.750   Value=0x00000002
T7B28 000:384.761 - 0.235ms returns 0
T7B28 000:384.768 JLINK_CORESIGHT_ReadAPDPReg(AP reg 0x03)
T7B28 000:385.000   Value=0x00000002
T7B28 000:385.011 - 0.243ms returns 0
T7B28 000:385.018 JLINK_CORESIGHT_ReadAPDPReg(AP reg 0x03)
T7B28 000:385.242   Value=0x00000002
T7B28 000:385.253 - 0.234ms returns 0
T7B28 000:385.259 JLINK_CORESIGHT_ReadAPDPReg(AP reg 0x03)
T7B28 000:385.508   Value=0x00000000
T7B28 000:385.518 - 0.259ms returns 0
T7B28 000:385.525 JLINK_CORESIGHT_WriteAPDPReg(AP reg 0x00, 0x80000002)
T7B28 000:385.692 - 0.166ms returns 0
T7B28 000:385.703 JLINK_CORESIGHT_WriteAPDPReg(AP reg 0x01, 0x80011130)
T7B28 000:385.870 - 0.167ms returns 0
T7B28 000:385.881 JLINK_CORESIGHT_ReadAPDPReg(AP reg 0x03)
T7B28 000:386.105   Value=0x2C020081
T7B28 000:386.115 - 0.234ms returns 0
T7B28 000:386.122 JLINK_CORESIGHT_WriteAPDPReg(AP reg 0x00, 0x80000002)
T7B28 000:386.287 - 0.164ms returns 0
T7B28 000:386.297 JLINK_CORESIGHT_WriteAPDPReg(AP reg 0x01, 0x80011140)
T7B28 000:386.589 - 0.291ms returns 0
T7B28 000:386.607 JLINK_CORESIGHT_ReadAPDPReg(AP reg 0x03)
T7B28 000:386.918   Value=0x00000000
T7B28 000:386.933 - 0.326ms returns 0
T7B28 000:386.941 JLINK_CORESIGHT_WriteAPDPReg(AP reg 0x00, 0x80000002)
T7B28 000:387.142 - 0.200ms returns 0
T7B28 000:387.156 JLINK_CORESIGHT_WriteAPDPReg(AP reg 0x01, 0x80011130)
T7B28 000:387.323 - 0.166ms returns 0
T7B28 000:387.334 JLINK_CORESIGHT_ReadAPDPReg(AP reg 0x03)
T7B28 000:387.571   Value=0x0003CE04
T7B28 000:387.582 - 0.248ms returns 0
T7B28 000:387.593 JLINK_CORESIGHT_WriteAPDPReg(AP reg 0x00, 0x80000002)
T7B28 000:387.760 - 0.167ms returns 0
T7B28 000:387.771 JLINK_CORESIGHT_WriteAPDPReg(AP reg 0x01, 0x80011140)
T7B28 000:387.941 - 0.169ms returns 0
T7B28 000:387.952 JLINK_CORESIGHT_ReadAPDPReg(AP reg 0x03)
T7B28 000:388.181   Value=0x00000002
T7B28 000:388.193 - 0.241ms returns 0
T7B28 000:388.200 JLINK_CORESIGHT_WriteAPDPReg(AP reg 0x00, 0x80000002)
T7B28 000:388.363 - 0.163ms returns 0
T7B28 000:388.373 JLINK_CORESIGHT_WriteAPDPReg(AP reg 0x01, 0x80011120)
T7B28 000:388.635 - 0.261ms returns 0
T7B28 000:388.645 JLINK_CORESIGHT_WriteAPDPReg(AP reg 0x03, 0x73010001)
T7B28 000:388.813 - 0.168ms returns 0
T7B28 000:388.824 JLINK_CORESIGHT_WriteAPDPReg(AP reg 0x00, 0x80000002)
T7B28 000:388.988 - 0.163ms returns 0
T7B28 000:388.998 JLINK_CORESIGHT_WriteAPDPReg(AP reg 0x01, 0x80011140)
T7B28 000:389.191 - 0.193ms returns 0
T7B28 000:389.202 JLINK_CORESIGHT_ReadAPDPReg(AP reg 0x03)
T7B28 000:389.426   Value=0x00000002
T7B28 000:389.436 - 0.234ms returns 0
T7B28 000:389.443 JLINK_CORESIGHT_WriteAPDPReg(AP reg 0x00, 0x80000002)
T7B28 000:389.612 - 0.168ms returns 0
T7B28 000:389.623 JLINK_CORESIGHT_WriteAPDPReg(AP reg 0x01, 0x80011120)
T7B28 000:389.791 - 0.168ms returns 0
T7B28 000:389.802 JLINK_CORESIGHT_WriteAPDPReg(AP reg 0x03, 0x0000038C)
T7B28 000:390.034 - 0.232ms returns 0
T7B28 000:390.049 JLINK_CORESIGHT_WriteAPDPReg(AP reg 0x00, 0x80000002)
T7B28 000:390.247 - 0.198ms returns 0
T7B28 000:390.298 JLINK_CORESIGHT_WriteAPDPReg(AP reg 0x01, 0x80011140)
T7B28 000:390.545 - 0.246ms returns 0
T7B28 000:390.559 JLINK_CORESIGHT_ReadAPDPReg(AP reg 0x03)
T7B28 000:390.793   Value=0x00000002
T7B28 000:390.805 - 0.245ms returns 0
T7B28 000:390.812 JLINK_CORESIGHT_ReadAPDPReg(AP reg 0x03)
T7B28 000:391.042   Value=0x00000002
T7B28 000:391.052 - 0.240ms returns 0
T7B28 000:391.059 JLINK_CORESIGHT_ReadAPDPReg(AP reg 0x03)
T7B28 000:391.294   Value=0x00000002
T7B28 000:391.305 - 0.246ms returns 0
T7B28 000:391.312 JLINK_CORESIGHT_ReadAPDPReg(AP reg 0x03)
T7B28 000:391.539   Value=0x00000000
T7B28 000:391.550 - 0.237ms returns 0
T7B28 000:391.557 JLINK_CORESIGHT_WriteAPDPReg(AP reg 0x00, 0x80000002)
T7B28 000:391.722 - 0.165ms returns 0
T7B28 000:391.733 JLINK_CORESIGHT_WriteAPDPReg(AP reg 0x01, 0x80011130)
T7B28 000:391.932 - 0.198ms returns 0
T7B28 000:391.946 JLINK_CORESIGHT_ReadAPDPReg(AP reg 0x03)
T7B28 000:392.174   Value=0x73020081
T7B28 000:392.185 - 0.238ms returns 0
T7B28 000:392.191 JLINK_CORESIGHT_WriteAPDPReg(AP reg 0x00, 0x80000002)
T7B28 000:392.357 - 0.165ms returns 0
T7B28 000:392.368 JLINK_CORESIGHT_WriteAPDPReg(AP reg 0x01, 0x80011140)
T7B28 000:392.548 - 0.179ms returns 0
T7B28 000:392.580 JLINK_CORESIGHT_ReadAPDPReg(AP reg 0x03)
T7B28 000:392.850   Value=0x00000000
T7B28 000:392.864 - 0.284ms returns 0
T7B28 000:392.872 JLINK_CORESIGHT_WriteAPDPReg(AP reg 0x00, 0x80000002)
T7B28 000:393.076 - 0.203ms returns 0
T7B28 000:393.090 JLINK_CORESIGHT_WriteAPDPReg(AP reg 0x01, 0x80011130)
T7B28 000:393.260 - 0.170ms returns 0
T7B28 000:393.273 JLINK_CORESIGHT_ReadAPDPReg(AP reg 0x03)
T7B28 000:393.509   Value=0x00038902
T7B28 000:393.520 - 0.247ms returns 0
T7B28 000:393.527 JLINK_CORESIGHT_WriteAPDPReg(AP reg 0x00, 0x80000002)
T7B28 000:393.720 - 0.192ms returns 0
T7B28 000:393.730 JLINK_CORESIGHT_WriteAPDPReg(AP reg 0x01, 0x80011140)
T7B28 000:393.923 - 0.193ms returns 0
T7B28 000:393.934 JLINK_CORESIGHT_ReadAPDPReg(AP reg 0x03)
T7B28 000:394.156   Value=0x00000002
T7B28 000:394.167 - 0.232ms returns 0
T7B28 000:394.174 JLINK_CORESIGHT_WriteAPDPReg(AP reg 0x00, 0x80000002)
T7B28 000:394.340 - 0.165ms returns 0
T7B28 000:394.350 JLINK_CORESIGHT_WriteAPDPReg(AP reg 0x01, 0x80011120)
T7B28 000:394.517 - 0.166ms returns 0
T7B28 000:394.528 JLINK_CORESIGHT_WriteAPDPReg(AP reg 0x03, 0x75010001)
T7B28 000:394.692 - 0.163ms returns 0
T7B28 000:394.702 JLINK_CORESIGHT_WriteAPDPReg(AP reg 0x00, 0x80000002)
T7B28 000:394.892 - 0.190ms returns 0
T7B28 000:394.902 JLINK_CORESIGHT_WriteAPDPReg(AP reg 0x01, 0x80011140)
T7B28 000:395.095 - 0.192ms returns 0
T7B28 000:395.106 JLINK_CORESIGHT_ReadAPDPReg(AP reg 0x03)
T7B28 000:395.328   Value=0x00000002
T7B28 000:395.340 - 0.233ms returns 0
T7B28 000:395.346 JLINK_CORESIGHT_WriteAPDPReg(AP reg 0x00, 0x80000002)
T7B28 000:395.522 - 0.175ms returns 0
T7B28 000:395.543 JLINK_CORESIGHT_WriteAPDPReg(AP reg 0x01, 0x80011120)
T7B28 000:395.812 - 0.268ms returns 0
T7B28 000:395.848 JLINK_CORESIGHT_WriteAPDPReg(AP reg 0x03, 0x0000038A)
T7B28 000:396.187 - 0.339ms returns 0
T7B28 000:396.208 JLINK_CORESIGHT_WriteAPDPReg(AP reg 0x00, 0x80000002)
T7B28 000:396.443 - 0.235ms returns 0
T7B28 000:396.463 JLINK_CORESIGHT_WriteAPDPReg(AP reg 0x01, 0x80011140)
T7B28 000:396.675 - 0.211ms returns 0
T7B28 000:396.695 JLINK_CORESIGHT_ReadAPDPReg(AP reg 0x03)
T7B28 000:396.926   Value=0x00000002
T7B28 000:396.938 - 0.242ms returns 0
T7B28 000:396.950 JLINK_CORESIGHT_ReadAPDPReg(AP reg 0x03)
T7B28 000:397.178   Value=0x00000002
T7B28 000:397.188 - 0.239ms returns 0
T7B28 000:397.200 JLINK_CORESIGHT_ReadAPDPReg(AP reg 0x03)
T7B28 000:397.531   Value=0x00000002
T7B28 000:397.547 - 0.347ms returns 0
T7B28 000:397.563 JLINK_CORESIGHT_ReadAPDPReg(AP reg 0x03)
T7B28 000:397.856   Value=0x00000002
T7B28 000:397.871 - 0.308ms returns 0
T7B28 000:397.884 JLINK_CORESIGHT_ReadAPDPReg(AP reg 0x03)
T7B28 000:398.151   Value=0x00000002
T7B28 000:398.166 - 0.281ms returns 0
T7B28 000:398.179 JLINK_CORESIGHT_ReadAPDPReg(AP reg 0x03)
T7B28 000:398.544   Value=0x00000002
T7B28 000:398.560 - 0.381ms returns 0
T7B28 000:398.573 JLINK_CORESIGHT_ReadAPDPReg(AP reg 0x03)
T7B28 000:398.845   Value=0x00000002
T7B28 000:398.860 - 0.286ms returns 0
T7B28 000:398.873 JLINK_CORESIGHT_ReadAPDPReg(AP reg 0x03)
T7B28 000:399.144   Value=0x00000002
T7B28 000:399.159 - 0.286ms returns 0
T7B28 000:399.173 JLINK_CORESIGHT_ReadAPDPReg(AP reg 0x03)
T7B28 000:399.455   Value=0x00000000
T7B28 000:399.470 - 0.297ms returns 0
T7B28 000:399.483 JLINK_CORESIGHT_WriteAPDPReg(AP reg 0x00, 0x80000002)
T7B28 000:399.684 - 0.201ms returns 0
T7B28 000:399.704 JLINK_CORESIGHT_WriteAPDPReg(AP reg 0x01, 0x80011130)
T7B28 000:399.870 - 0.165ms returns 0
T7B28 000:399.886 JLINK_CORESIGHT_ReadAPDPReg(AP reg 0x03)
T7B28 000:400.145   Value=0x75020081
T7B28 000:400.160 - 0.274ms returns 0
T7B28 000:400.173 JLINK_CORESIGHT_WriteAPDPReg(AP reg 0x00, 0x80000002)
T7B28 000:400.342 - 0.168ms returns 0
T7B28 000:400.357 JLINK_CORESIGHT_WriteAPDPReg(AP reg 0x01, 0x80011140)
T7B28 000:400.547 - 0.189ms returns 0
T7B28 000:400.562 JLINK_CORESIGHT_ReadAPDPReg(AP reg 0x03)
T7B28 000:400.794   Value=0x00000000
T7B28 000:400.806 - 0.243ms returns 0
T7B28 000:400.817 JLINK_CORESIGHT_WriteAPDPReg(AP reg 0x00, 0x80000002)
T7B28 000:401.045 - 0.227ms returns 0
T7B28 000:401.065 JLINK_CORESIGHT_WriteAPDPReg(AP reg 0x01, 0x80011130)
T7B28 000:401.257 - 0.191ms returns 0
T7B28 000:401.271 JLINK_CORESIGHT_ReadAPDPReg(AP reg 0x03)
T7B28 000:401.509   Value=0x00038702
T7B28 000:401.521 - 0.249ms returns 0
T7B28 000:401.893 JLINK_CORESIGHT_WriteAPDPReg(AP reg 0x00, 0x80000002)
T7B28 000:402.068 - 0.175ms returns 0
T7B28 000:402.078 JLINK_CORESIGHT_WriteAPDPReg(AP reg 0x01, 0x80011140)
T7B28 000:402.272 - 0.194ms returns 0
T7B28 000:402.283 JLINK_CORESIGHT_ReadAPDPReg(AP reg 0x03)
T7B28 000:402.508   Value=0x00000002
T7B28 000:402.518 - 0.234ms returns 0
T7B28 000:402.525 JLINK_CORESIGHT_WriteAPDPReg(AP reg 0x00, 0x80000002)
T7B28 000:402.688 - 0.162ms returns 0
T7B28 000:402.698 JLINK_CORESIGHT_WriteAPDPReg(AP reg 0x01, 0x80011120)
T7B28 000:402.889 - 0.191ms returns 0
T7B28 000:402.900 JLINK_CORESIGHT_WriteAPDPReg(AP reg 0x03, 0x4F010001)
T7B28 000:403.094 - 0.193ms returns 0
T7B28 000:403.104 JLINK_CORESIGHT_WriteAPDPReg(AP reg 0x00, 0x80000002)
T7B28 000:403.276 - 0.171ms returns 0
T7B28 000:403.287 JLINK_CORESIGHT_WriteAPDPReg(AP reg 0x01, 0x80011140)
T7B28 000:403.509 - 0.222ms returns 0
T7B28 000:403.520 JLINK_CORESIGHT_ReadAPDPReg(AP reg 0x03)
T7B28 000:403.745   Value=0x00000002
T7B28 000:403.756 - 0.236ms returns 0
T7B28 000:403.763 JLINK_CORESIGHT_WriteAPDPReg(AP reg 0x00, 0x80000002)
T7B28 000:403.933 - 0.169ms returns 0
T7B28 000:403.944 JLINK_CORESIGHT_WriteAPDPReg(AP reg 0x01, 0x80011120)
T7B28 000:404.106 - 0.162ms returns 0
T7B28 000:404.116 JLINK_CORESIGHT_WriteAPDPReg(AP reg 0x03, 0x000003B0)
T7B28 000:404.307 - 0.190ms returns 0
T7B28 000:404.317 JLINK_CORESIGHT_WriteAPDPReg(AP reg 0x00, 0x80000002)
T7B28 000:404.509 - 0.192ms returns 0
T7B28 000:404.520 JLINK_CORESIGHT_WriteAPDPReg(AP reg 0x01, 0x80011140)
T7B28 000:404.688 - 0.167ms returns 0
T7B28 000:404.699 JLINK_CORESIGHT_ReadAPDPReg(AP reg 0x03)
T7B28 000:404.922   Value=0x00000002
T7B28 000:404.932 - 0.233ms returns 0
T7B28 000:404.939 JLINK_CORESIGHT_ReadAPDPReg(AP reg 0x03)
T7B28 000:405.172   Value=0x00000002
T7B28 000:405.183 - 0.244ms returns 0
T7B28 000:405.190 JLINK_CORESIGHT_ReadAPDPReg(AP reg 0x03)
T7B28 000:405.417   Value=0x00000002
T7B28 000:405.428 - 0.237ms returns 0
T7B28 000:405.434 JLINK_CORESIGHT_ReadAPDPReg(AP reg 0x03)
T7B28 000:405.674   Value=0x00000002
T7B28 000:405.685 - 0.251ms returns 0
T7B28 000:405.693 JLINK_CORESIGHT_ReadAPDPReg(AP reg 0x03)
T7B28 000:405.930   Value=0x00000002
T7B28 000:405.940 - 0.247ms returns 0
T7B28 000:405.948 JLINK_CORESIGHT_ReadAPDPReg(AP reg 0x03)
T7B28 000:406.214   Value=0x00000002
T7B28 000:406.229 - 0.281ms returns 0
T7B28 000:406.237 JLINK_CORESIGHT_ReadAPDPReg(AP reg 0x03)
T7B28 000:406.506   Value=0x00000002
T7B28 000:406.546 - 0.309ms returns 0
T7B28 000:406.553 JLINK_CORESIGHT_ReadAPDPReg(AP reg 0x03)
T7B28 000:406.782   Value=0x00000000
T7B28 000:406.792 - 0.239ms returns 0
T7B28 000:406.799 JLINK_CORESIGHT_WriteAPDPReg(AP reg 0x00, 0x80000002)
T7B28 000:406.961 - 0.162ms returns 0
T7B28 000:406.973 JLINK_CORESIGHT_WriteAPDPReg(AP reg 0x01, 0x80011130)
T7B28 000:407.166 - 0.193ms returns 0
T7B28 000:407.177 JLINK_CORESIGHT_ReadAPDPReg(AP reg 0x03)
T7B28 000:407.437   Value=0x4F0B0081
T7B28 000:407.452 - 0.275ms returns 0
T7B28 000:407.460 JLINK_CORESIGHT_WriteAPDPReg(AP reg 0x00, 0x80000002)
T7B28 000:407.635 - 0.175ms returns 0
T7B28 000:407.645 JLINK_CORESIGHT_WriteAPDPReg(AP reg 0x01, 0x80011140)
T7B28 000:407.813 - 0.167ms returns 0
T7B28 000:407.824 JLINK_CORESIGHT_ReadAPDPReg(AP reg 0x03)
T7B28 000:408.047   Value=0x00000000
T7B28 000:408.057 - 0.233ms returns 0
T7B28 000:408.064 JLINK_CORESIGHT_WriteAPDPReg(AP reg 0x00, 0x80000002)
T7B28 000:408.235 - 0.170ms returns 0
T7B28 000:408.246 JLINK_CORESIGHT_WriteAPDPReg(AP reg 0x01, 0x80011130)
T7B28 000:408.415 - 0.169ms returns 0
T7B28 000:408.426 JLINK_CORESIGHT_ReadAPDPReg(AP reg 0x03)
T7B28 000:408.724   Value=0x60030000
T7B28 000:408.738 - 0.312ms returns 0
T7B28 000:408.746 JLINK_CORESIGHT_WriteAPDPReg(AP reg 0x00, 0x80000002)
T7B28 000:408.951 - 0.204ms returns 0
T7B28 000:408.965 JLINK_CORESIGHT_WriteAPDPReg(AP reg 0x01, 0x80011140)
T7B28 000:409.167 - 0.201ms returns 0
T7B28 000:409.181 JLINK_CORESIGHT_ReadAPDPReg(AP reg 0x03)
T7B28 000:409.408   Value=0x00000000
T7B28 000:409.420 - 0.238ms returns 0
T7B28 000:409.427 JLINK_CORESIGHT_WriteAPDPReg(AP reg 0x00, 0x80000002)
T7B28 000:409.614 - 0.186ms returns 0
T7B28 000:409.625 JLINK_CORESIGHT_WriteAPDPReg(AP reg 0x01, 0x80011130)
T7B28 000:409.826 - 0.200ms returns 0
T7B28 000:409.840 JLINK_CORESIGHT_ReadAPDPReg(AP reg 0x03)
T7B28 000:410.068   Value=0x00000000
T7B28 000:410.079 - 0.238ms returns 0
T7B28 000:410.086 JLINK_CORESIGHT_WriteAPDPReg(AP reg 0x00, 0x80000002)
T7B28 000:410.260 - 0.173ms returns 0
T7B28 000:410.271 JLINK_CORESIGHT_WriteAPDPReg(AP reg 0x01, 0x80011140)
T7B28 000:410.508 - 0.237ms returns 0
T7B28 000:410.519 JLINK_CORESIGHT_ReadAPDPReg(AP reg 0x03)
T7B28 000:410.740   Value=0x00000000
T7B28 000:410.751 - 0.232ms returns 0
T7B28 000:410.758 JLINK_CORESIGHT_WriteAPDPReg(AP reg 0x00, 0x80000002)
T7B28 000:410.925 - 0.167ms returns 0
T7B28 000:410.936 JLINK_CORESIGHT_WriteAPDPReg(AP reg 0x01, 0x80011130)
T7B28 000:411.132 - 0.196ms returns 0
T7B28 000:411.143 JLINK_CORESIGHT_ReadAPDPReg(AP reg 0x03)
T7B28 000:411.367   Value=0x03430000
T7B28 000:411.379 - 0.236ms returns 0
T7B28 000:411.455 JLINK_CORESIGHT_ReadAPDPReg(DP reg 0x01)
T7B28 000:411.686   Value=0xF0000F40
T7B28 000:411.700 - 0.245ms returns 0
T7B28 000:411.708 JLINK_CORESIGHT_WriteAPDPReg(DP reg 0x01, 0xA0000F40)
T7B28 000:411.909 - 0.201ms returns 0
T7B28 000:411.924 JLINK_CORESIGHT_ReadAPDPReg(DP reg 0x01)
T7B28 000:412.129   Value=0x00000F40
T7B28 000:412.144 - 0.219ms returns 0
T7B28 000:412.154 JLINK_ClrRESET()
T7B28 000:412.386 - 0.232ms 
T7B28 000:519.972 JLINK_Close()
T7B28 000:528.865 - 8.893ms
T7B28 000:528.897   
T7B28 000:528.904   Closed
